
T2ED0 000:050 SEGGER J-Link V6.00e Log File (0001ms, 0017ms total)
T2ED0 000:050 DLL Compiled: Aug  4 2016 09:37:38 (0001ms, 0017ms total)
T2ED0 000:050 Logging started @ 2018-05-06 16:45 (0001ms, 0017ms total)
T2ED0 000:051 JLINK_SetWarnOutHandler(...) (0000ms, 0017ms total)
T2ED0 000:051 JLINK_OpenEx(...)
Firmware: J-Link ARM-OB STM32 compiled Aug 22 2012 19:52:04
Hardware: V7.00
S/N: 20090928
Feature(s): RDI,FlashDL,FlashBP,JFlash,GDBFull  returns O.K. (0013ms, 0030ms total)
T2ED0 000:064 JLINK_SetErrorOutHandler(...) (0000ms, 0030ms total)
T2ED0 000:064 JLINK_ExecCommand("ProjectFile = "E:\学习资料\比赛\飞思卡尔智能车大赛\电磁三轮组\程序\Freescale\USER\JLinkSettings.ini"", ...). Device "CORTEX-M0+" selected.  returns 0x00 (0113ms, 0143ms total)
T2ED0 000:194 JLINK_ExecCommand("Device = SKEAZ128xxx4", ...). Device "SKEAZ128XXX4" selected.  returns 0x00 (0014ms, 0157ms total)
T2ED0 000:208 JLINK_ExecCommand("DisableConnectionTimeout", ...).   returns 0x01 (0000ms, 0157ms total)
T2ED0 000:208 JLINK_GetHardwareVersion()  returns 0x11170 (0000ms, 0157ms total)
T2ED0 000:208 JLINK_GetDLLVersion()  returns 60005 (0001ms, 0158ms total)
T2ED0 000:209 JLINK_GetFirmwareString(...) (0000ms, 0158ms total)
T2ED0 000:257 JLINK_GetDLLVersion()  returns 60005 (0000ms, 0158ms total)
T2ED0 000:257 JLINK_GetCompileDateTime() (0000ms, 0158ms total)
T2ED0 000:272 JLINK_GetFirmwareString(...) (0000ms, 0158ms total)
T2ED0 000:298 JLINK_GetHardwareVersion()  returns 0x11170 (0000ms, 0158ms total)
T2ED0 000:333 JLINK_TIF_Select(JLINKARM_TIF_SWD)  returns 0x00 (0001ms, 0159ms total)
T2ED0 000:334 JLINK_SetSpeed(5000) (0000ms, 0159ms total)
T2ED0 000:334 JLINK_GetId() >0x108 TIF>Found SWD-DP with ID 0x0BC11477 >0x0D TIF> >0x28 TIF> >0x0D TIF> >0x28 TIF> >0x0D TIF> >0x28 TIF> >0x0D TIF> >0x28 TIF> >0x0D TIF> >0x21 TIF> >0x0D TIF> >0x28 TIF> >0x0D TIF> >0x21 TIF> >0x0D TIF> >0x21 TIF> >0x0D TIF> >0x21 TIF> >0x0D TIF> >0x21 TIF> >0x0D TIF> >0x21 TIF> >0x0D TIF> >0x21 TIF> >0x0D TIF> >0x21 TIF> >0x0D TIF> >0x21 TIF> >0x0D TIF> >0x21 TIF> >0x0D TIF> >0x21 TIF> >0x0D TIF> >0x21 TIF> >0x0D TIF> >0x21 TIF> >0x0D TIF> >0x21 TIF> >0x0D TIF>
 >0x21 TIF> >0x0D TIF> >0x21 TIF> >0x0D TIF> >0x21 TIF> >0x0D TIF> >0x21 TIF> >0x0D TIF> >0x21 TIF> >0x0D TIF> >0x21 TIF> >0x0D TIF> >0x21 TIF> >0x0D TIF> >0x21 TIF> >0x0D TIF> >0x21 TIF> >0x0D TIF> >0x21 TIF> >0x0D TIF> >0x21 TIF> >0x0D TIF> >0x21 TIF> >0x0D TIF> >0x21 TIF> >0x0D TIF> >0x21 TIF> >0x0D TIF> >0x21 TIF> >0x0D TIF> >0x21 TIF> >0x0D TIF> >0x21 TIF> >0x0D TIF> >0x21 TIF> >0x0D TIF> >0x21 TIF> >0x0D TIF> >0x21 TIF> >0x0D TIF> >0x21 TIF> >0x0D TIF> >0x21 TIF> >0x0D TIF> >0x21 TIF> >0x0D TIF>
 >0x21 TIF> >0x0D TIF> >0x21 TIF> >0x0D TIF> >0x21 TIF> >0x0D TIF> >0x21 TIF> >0x0D TIF> >0x21 TIF> >0x0D TIF> >0x21 TIF> >0x0D TIF> >0x21 TIF> >0x0D TIF> >0x21 TIF> >0x0D TIF> >0x21 TIF> >0x0D TIF> >0x21 TIF> >0x0D TIF> >0x21 TIF> >0x0D TIF> >0x21 TIF> >0x0D TIF> >0x21 TIF> >0x0D TIF> >0x21 TIF> >0x0D TIF> >0x21 TIF> >0x0D TIF> >0x21 TIF> >0x0D TIF> >0x21 TIF> >0x0D TIF> >0x21 TIF> >0x0D TIF> >0x21 TIF> >0x0D TIF> >0x21 TIF> >0x0D TIF> >0x21 TIF> >0x0D TIF> >0x21 TIF> >0x0D TIF> >0x21 TIF> >0x0D TIF>
 >0x21 TIF> >0x0D TIF> >0x21 TIF> >0x0D TIF> >0x21 TIF> >0x0D TIF> >0x21 TIF> >0x0D TIF> >0x21 TIF> >0x0D TIF> >0x21 TIF> >0x0D TIF> >0x21 TIF> >0x0D TIF> >0x21 TIF> >0x0D TIF> >0x21 TIF> >0x0D TIF> >0x21 TIF> >0x0D TIF> >0x21 TIF> >0x0D TIF> >0x21 TIF> >0x0D TIF> >0x21 TIF> >0x0D TIF> >0x21 TIF> >0x0D TIF> >0x21 TIF> >0x0D TIF> >0x21 TIF> >0x0D TIF> >0x21 TIF> >0x0D TIF> >0x21 TIF> >0x0D TIF> >0x21 TIF> >0x0D TIF> >0x21 TIF> >0x0D TIF> >0x21 TIF> >0x0D TIF> >0x21 TIF> >0x0D TIF> >0x21 TIF> >0x0D TIF>
 >0x21 TIF> >0x0D TIF> >0x21 TIF> >0x0D TIF> >0x21 TIF> >0x0D TIF> >0x21 TIF> >0x0D TIF> >0x21 TIF> >0x0D TIF> >0x21 TIF> >0x0D TIF> >0x21 TIF> >0x0D TIF> >0x21 TIF> >0x0D TIF> >0x21 TIF> >0x0D TIF> >0x21 TIF> >0x0D TIF> >0x21 TIF> >0x0D TIF> >0x21 TIF> >0x0D TIF> >0x21 TIF> >0x0D TIF> >0x21 TIF> >0x0D TIF> >0x21 TIF> >0x0D TIF> >0x21 TIF> >0x0D TIF> >0x21 TIF> >0x0D TIF> >0x21 TIF> >0x0D TIF> >0x21 TIF> >0x0D TIF> >0x21 TIF> >0x0D TIF> >0x21 TIF> >0x0D TIF> >0x21 TIF> >0x0D TIF> >0x21 TIF> >0x0D TIF>
 >0x21 TIF> >0x0D TIF> >0x21 TIF> >0x0D TIF> >0x21 TIF> >0x0D TIF> >0x21 TIF> >0x0D TIF> >0x21 TIF> >0x0D TIF> >0x21 TIF> >0x0D TIF> >0x21 TIF> >0x0D TIF> >0x21 TIF> >0x0D TIF> >0x21 TIF> >0x0D TIF> >0x21 TIF> >0x0D TIF> >0x21 TIF> >0x0D TIF> >0x21 TIF> >0x0D TIF> >0x21 TIF> >0x0D TIF> >0x21 TIF> >0x0D TIF> >0x21 TIF> >0x0D TIF> >0x21 TIF> >0x0D TIF> >0x21 TIF> >0x0D TIF> >0x28 TIF> >0x0D TIF> >0x28 TIF> >0x0D TIF> >0x28 TIF> >0x0D TIF> >0x21 TIF> >0x0D TIF> >0x21 TIF> >0x108 TIF>
Found SWD-DP with ID 0x0BC11477 >0x0D TIF> >0x28 TIF> >0x0D TIF> >0x28 TIF> >0x0D TIF> >0x28 TIF> >0x0D TIF> >0x28 TIF> >0x0D TIF> >0x21 TIF> >0x0D TIF> >0x28 TIF> >0x0D TIF> >0x28 TIF> >0x0D TIF> >0x21 TIF> >0x0D TIF> >0x21 TIF> >0x0D TIF> >0x21 TIF>AP-IDR: 0x04770031, Type: AHB-AP >0x0D TIF> >0x28 TIF> >0x0D TIF> >0x28 TIF> >0x0D TIF> >0x28 TIF> >0x0D TIF> >0x21 TIF> >0x0D TIF> >0x21 TIF> >0x0D TIF> >0x28 TIF> >0x0D TIF> >0x21 TIF> >0x0D TIF> >0x21 TIF>Found Cortex-M0 r0p0, Little endian.
 -- CPU_ReadMem(4 bytes @ 0xE000EDF0) -- CPU_ReadMem(4 bytes @ 0xE0002000)FPUnit: 2 code (BP) slots and 0 literal slots -- CPU_ReadMem(4 bytes @ 0xE000EDFC) -- CPU_ReadMem(4 bytes @ 0xE0001000) -- CPU_WriteMem(4 bytes @ 0xE0001000)CoreSight components:ROMTbl 0 @ F0002000 -- CPU_ReadMem(16 bytes @ 0xF0002000) -- CPU_ReadMem(16 bytes @ 0xE00FFFF0) -- CPU_ReadMem(16 bytes @ 0xE00FFFE0)ROMTbl 0 [0]: F00FD000, CID: B105100D, PID: 000BB4C0 ROM TableROMTbl 1 @ E00FF000 -- CPU_ReadMem(16 bytes @ 0xE00FF000)
 -- CPU_ReadMem(16 bytes @ 0xE000EFF0) -- CPU_ReadMem(16 bytes @ 0xE000EFE0)ROMTbl 1 [0]: FFF0F000, CID: B105E00D, PID: 000BB008 SCS -- CPU_ReadMem(16 bytes @ 0xE0001FF0) -- CPU_ReadMem(16 bytes @ 0xE0001FE0)ROMTbl 1 [1]: FFF02000, CID: B105E00D, PID: 000BB00A DWT -- CPU_ReadMem(16 bytes @ 0xE0002FF0) -- CPU_ReadMem(16 bytes @ 0xE0002FE0)ROMTbl 1 [2]: FFF03000, CID: B105E00D, PID: 000BB00B FPB -- CPU_ReadMem(1 bytes @ 0x40052000) >0x0D TIF> >0x21 TIF>  returns 0x0BC11477 (0169ms, 0328ms total)
T2ED0 000:503 JLINK_GetDLLVersion()  returns 60005 (0000ms, 0328ms total)
T2ED0 000:503 JLINK_CORE_GetFound()  returns 0x60000FF (0000ms, 0328ms total)
T2ED0 000:503 JLINK_GetDebugInfo(0x100) -- Value=0xF0002000  returns 0x00 (0000ms, 0328ms total)
T2ED0 000:512 JLINK_GetDebugInfo(0x100) -- Value=0xF0002000  returns 0x00 (0000ms, 0328ms total)
T2ED0 000:512 JLINK_GetDebugInfo(0x101) -- Value=0x00000000  returns 0x00 (0000ms, 0328ms total)
T2ED0 000:512 JLINK_ReadMem (0xE0041FF0, 0x0010 Bytes, ...) -- CPU_ReadMem(16 bytes @ 0xE0041FF0) - Data: 00 00 00 00 00 00 00 00 00 00 00 00 00 00 00 00  returns 0x00 (0001ms, 0329ms total)
T2ED0 000:513 JLINK_GetDebugInfo(0x102) -- Value=0x00000000  returns 0x00 (0000ms, 0329ms total)
T2ED0 000:513 JLINK_GetDebugInfo(0x103) -- Value=0x00000000  returns 0x00 (0000ms, 0329ms total)
T2ED0 000:513 JLINK_ReadMem (0xE0040FF0, 0x0010 Bytes, ...) -- CPU_ReadMem(16 bytes @ 0xE0040FF0) - Data: 00 00 00 00 00 00 00 00 00 00 00 00 00 00 00 00  returns 0x00 (0001ms, 0330ms total)
T2ED0 000:514 JLINK_GetDebugInfo(0x104) -- Value=0xE0000000  returns 0x00 (0000ms, 0330ms total)
T2ED0 000:514 JLINK_GetDebugInfo(0x105) -- Value=0xE0001000  returns 0x00 (0000ms, 0330ms total)
T2ED0 000:514 JLINK_GetDebugInfo(0x106) -- Value=0xE0002000  returns 0x00 (0000ms, 0330ms total)
T2ED0 000:514 JLINK_GetDebugInfo(0x107) -- Value=0xE000E000  returns 0x00 (0000ms, 0330ms total)
T2ED0 000:514 JLINK_GetDebugInfo(0x10C) -- Value=0xE000EDF0  returns 0x00 (0000ms, 0330ms total)
T2ED0 000:514 JLINK_ReadMemU32(0xE000ED00, 0x0001 Items, ...) -- CPU_ReadMem(4 bytes @ 0xE000ED00) - Data: 00 C6 0C 41  returns 0x01 (0001ms, 0331ms total)
T2ED0 000:515 JLINK_SetResetType(JLINKARM_RESET_TYPE_NORMAL)  returns JLINKARM_RESET_TYPE_NORMAL (0000ms, 0331ms total)
T2ED0 000:515 JLINK_Reset() -- CPU_WriteMem(4 bytes @ 0xE000EDF0) -- CPU_WriteMem(4 bytes @ 0xE000EDFC) >0x35 TIF> -- CPU_WriteMem(4 bytes @ 0xE000ED0C) -- CPU_ReadMem(4 bytes @ 0xE000EDF0) -- CPU_ReadMem(4 bytes @ 0xE000EDF0) -- CPU_WriteMem(4 bytes @ 0xE000EDF0) -- CPU_WriteMem(4 bytes @ 0xE000EDFC) -- CPU is running -- CPU_ReadMem(4 bytes @ 0xE000EDF0) -- CPU_ReadMem(1 bytes @ 0x40052000) -- CPU_WriteMem(1 bytes @ 0x40052004) -- CPU_WriteMem(1 bytes @ 0x40052005) -- CPU_WriteMem(1 bytes @ 0x40052006)
 -- CPU_WriteMem(1 bytes @ 0x40052007) -- CPU_WriteMem(1 bytes @ 0x40052001) -- CPU_WriteMem(1 bytes @ 0x40052000) -- CPU_ReadMem(1 bytes @ 0x40052000) -- CPU_WriteMem(4 bytes @ 0xE0002000) -- CPU_ReadMem(4 bytes @ 0xE000EDFC) -- CPU_ReadMem(4 bytes @ 0xE0001000) -- CPU_WriteMem(4 bytes @ 0xE0001000) (0022ms, 0353ms total)
T2ED0 000:537 JLINK_Halt()  returns 0x00 (0000ms, 0353ms total)
T2ED0 000:537 JLINK_IsHalted()  returns TRUE (0000ms, 0353ms total)
T2ED0 000:537 JLINK_ReadMemU32(0xE000EDF0, 0x0001 Items, ...) -- CPU_ReadMem(4 bytes @ 0xE000EDF0) - Data: 03 00 03 01  returns 0x01 (0000ms, 0353ms total)
T2ED0 000:537 JLINK_WriteU32(0xE000EDF0, 0xA05F0003) -- CPU_WriteMem(4 bytes @ 0xE000EDF0)  returns 0x00 (0001ms, 0354ms total)
T2ED0 000:538 JLINK_WriteU32(0xE000EDFC, 0x01000000) -- CPU_WriteMem(4 bytes @ 0xE000EDFC)  returns 0x00 (0001ms, 0355ms total)
T2ED0 000:562 JLINK_GetHWStatus(...)  returns 0x00 (0001ms, 0356ms total)
T2ED0 000:580 JLINK_GetNumBPUnits(Type = 0xFFFFFF00)  returns 0x02 (0000ms, 0356ms total)
T2ED0 000:580 JLINK_GetNumBPUnits(Type = 0xF0)  returns 0x2000 (0000ms, 0356ms total)
T2ED0 000:580 JLINK_GetNumWPUnits()  returns 0x02 (0000ms, 0356ms total)
T2ED0 000:599 JLINK_GetSpeed()  returns 0xFA0 (0000ms, 0356ms total)
T2ED0 000:612 JLINK_ReadMemU32(0xE000E004, 0x0001 Items, ...) -- CPU_ReadMem(4 bytes @ 0xE000E004) - Data: 00 00 00 00  returns 0x01 (0001ms, 0357ms total)
T2ED0 000:613 JLINK_Halt()  returns 0x00 (0000ms, 0357ms total)
T2ED0 000:613 JLINK_IsHalted()  returns TRUE (0000ms, 0357ms total)
T2ED0 000:616 JLINK_WriteMem(0x1FFFF000, 0x01AC Bytes, ...) - Data: 00 BE 0A E0 0D 78 2D 06 68 40 08 24 40 00 00 D3 ... -- CPU_WriteMem(428 bytes @ 0x1FFFF000)  returns 0x1AC (0008ms, 0365ms total)
T2ED0 000:624 JLINK_WriteReg(R0, 0x00000000)  returns 0x00 (0000ms, 0365ms total)
T2ED0 000:624 JLINK_WriteReg(R1, 0x00B71B00)  returns 0x00 (0000ms, 0365ms total)
T2ED0 000:624 JLINK_WriteReg(R2, 0x00000001)  returns 0x00 (0000ms, 0365ms total)
T2ED0 000:624 JLINK_WriteReg(R3, 0x00000000)  returns 0x00 (0000ms, 0365ms total)
T2ED0 000:624 JLINK_WriteReg(R4, 0x00000000)  returns 0x00 (0000ms, 0365ms total)
T2ED0 000:624 JLINK_WriteReg(R5, 0x00000000)  returns 0x00 (0000ms, 0365ms total)
T2ED0 000:624 JLINK_WriteReg(R6, 0x00000000)  returns 0x00 (0000ms, 0365ms total)
T2ED0 000:624 JLINK_WriteReg(R7, 0x00000000)  returns 0x00 (0000ms, 0365ms total)
T2ED0 000:624 JLINK_WriteReg(R8, 0x00000000)  returns 0x00 (0000ms, 0365ms total)
T2ED0 000:624 JLINK_WriteReg(R9, 0x1FFFF1A8)  returns 0x00 (0000ms, 0365ms total)
T2ED0 000:624 JLINK_WriteReg(R10, 0x00000000)  returns 0x00 (0001ms, 0366ms total)
T2ED0 000:625 JLINK_WriteReg(R11, 0x00000000)  returns 0x00 (0000ms, 0366ms total)
T2ED0 000:625 JLINK_WriteReg(R12, 0x00000000)  returns 0x00 (0000ms, 0366ms total)
T2ED0 000:625 JLINK_WriteReg(R13 (SP), 0x20000000)  returns 0x00 (0000ms, 0366ms total)
T2ED0 000:625 JLINK_WriteReg(R14, 0x1FFFF001)  returns 0x00 (0000ms, 0366ms total)
T2ED0 000:625 JLINK_WriteReg(R15 (PC), 0x1FFFF038)  returns 0x00 (0000ms, 0366ms total)
T2ED0 000:625 JLINK_WriteReg(XPSR, 0x01000000)  returns 0x00 (0000ms, 0366ms total)
T2ED0 000:625 JLINK_WriteReg(MSP, 0x20000000)  returns 0x00 (0000ms, 0366ms total)
T2ED0 000:625 JLINK_WriteReg(PSP, 0x20000000)  returns 0x00 (0000ms, 0366ms total)
T2ED0 000:625 JLINK_WriteReg(CFBP, 0x00000000)  returns 0x00 (0000ms, 0366ms total)
T2ED0 000:625 JLINK_SetBPEx(Addr = 0x1FFFF000, Type = 0xFFFFFFF2)  returns 0x00000001 (0000ms, 0366ms total)
T2ED0 000:625 JLINK_Go() -- CPU_WriteMem(4 bytes @ 0xE0002000) -- CPU_ReadMem(4 bytes @ 0xE0001000) -- CPU_WriteMem(4 bytes @ 0xE0001000) -- CPU_WriteMem(4 bytes @ 0xE0002008) -- CPU_WriteMem(4 bytes @ 0xE000200C) -- CPU_WriteMem(4 bytes @ 0xE0001004) (0006ms, 0372ms total)
T2ED0 000:631 JLINK_IsHalted()  returns TRUE (0003ms, 0375ms total)
T2ED0 000:634 JLINK_ReadReg(R15 (PC))  returns 0x1FFFF000 (0000ms, 0372ms total)
T2ED0 000:635 JLINK_ClrBPEx(BPHandle = 0x00000001)  returns 0x00 (0000ms, 0373ms total)
T2ED0 000:635 JLINK_ReadReg(R0)  returns 0x00000000 (0000ms, 0373ms total)
T2ED0 000:635 JLINK_WriteReg(R0, 0x00000000)  returns 0x00 (0000ms, 0373ms total)
T2ED0 000:635 JLINK_WriteReg(R1, 0x00000200)  returns 0x00 (0000ms, 0373ms total)
T2ED0 000:635 JLINK_WriteReg(R2, 0x000000FF)  returns 0x00 (0000ms, 0373ms total)
T2ED0 000:635 JLINK_WriteReg(R3, 0x00000000)  returns 0x00 (0000ms, 0373ms total)
T2ED0 000:635 JLINK_WriteReg(R4, 0x00000000)  returns 0x00 (0000ms, 0373ms total)
T2ED0 000:635 JLINK_WriteReg(R5, 0x00000000)  returns 0x00 (0000ms, 0373ms total)
T2ED0 000:635 JLINK_WriteReg(R6, 0x00000000)  returns 0x00 (0000ms, 0373ms total)
T2ED0 000:635 JLINK_WriteReg(R7, 0x00000000)  returns 0x00 (0001ms, 0374ms total)
T2ED0 000:636 JLINK_WriteReg(R8, 0x00000000)  returns 0x00 (0000ms, 0374ms total)
T2ED0 000:636 JLINK_WriteReg(R9, 0x1FFFF1A8)  returns 0x00 (0000ms, 0374ms total)
T2ED0 000:636 JLINK_WriteReg(R10, 0x00000000)  returns 0x00 (0000ms, 0374ms total)
T2ED0 000:636 JLINK_WriteReg(R11, 0x00000000)  returns 0x00 (0000ms, 0374ms total)
T2ED0 000:636 JLINK_WriteReg(R12, 0x00000000)  returns 0x00 (0000ms, 0374ms total)
T2ED0 000:636 JLINK_WriteReg(R13 (SP), 0x20000000)  returns 0x00 (0000ms, 0374ms total)
T2ED0 000:636 JLINK_WriteReg(R14, 0x1FFFF001)  returns 0x00 (0000ms, 0374ms total)
T2ED0 000:636 JLINK_WriteReg(R15 (PC), 0x1FFFF020)  returns 0x00 (0000ms, 0374ms total)
T2ED0 000:636 JLINK_WriteReg(XPSR, 0x01000000)  returns 0x00 (0000ms, 0374ms total)
T2ED0 000:636 JLINK_WriteReg(MSP, 0x20000000)  returns 0x00 (0000ms, 0374ms total)
T2ED0 000:636 JLINK_WriteReg(PSP, 0x20000000)  returns 0x00 (0000ms, 0374ms total)
T2ED0 000:636 JLINK_WriteReg(CFBP, 0x00000000)  returns 0x00 (0000ms, 0374ms total)
T2ED0 000:636 JLINK_SetBPEx(Addr = 0x1FFFF000, Type = 0xFFFFFFF2)  returns 0x00000002 (0001ms, 0375ms total)
T2ED0 000:637 JLINK_Go() -- CPU_WriteMem(4 bytes @ 0xE0002000) -- CPU_ReadMem(4 bytes @ 0xE0001000) -- CPU_WriteMem(4 bytes @ 0xE0001000) (0002ms, 0377ms total)
T2ED0 000:639 JLINK_IsHalted()  returns TRUE (0004ms, 0381ms total)
T2ED0 000:643 JLINK_ReadReg(R15 (PC))  returns 0x1FFFF000 (0000ms, 0377ms total)
T2ED0 000:643 JLINK_ClrBPEx(BPHandle = 0x00000002)  returns 0x00 (0000ms, 0377ms total)
T2ED0 000:643 JLINK_ReadReg(R0)  returns 0x00000001 (0000ms, 0377ms total)
T2ED0 000:643 JLINK_WriteReg(R0, 0x00000000)  returns 0x00 (0000ms, 0377ms total)
T2ED0 000:643 JLINK_WriteReg(R1, 0x00000200)  returns 0x00 (0000ms, 0377ms total)
T2ED0 000:643 JLINK_WriteReg(R2, 0x000000FF)  returns 0x00 (0000ms, 0377ms total)
T2ED0 000:643 JLINK_WriteReg(R3, 0x00000000)  returns 0x00 (0000ms, 0377ms total)
T2ED0 000:643 JLINK_WriteReg(R4, 0x00000000)  returns 0x00 (0000ms, 0377ms total)
T2ED0 000:643 JLINK_WriteReg(R5, 0x00000000)  returns 0x00 (0000ms, 0377ms total)
T2ED0 000:643 JLINK_WriteReg(R6, 0x00000000)  returns 0x00 (0000ms, 0377ms total)
T2ED0 000:643 JLINK_WriteReg(R7, 0x00000000)  returns 0x00 (0001ms, 0378ms total)
T2ED0 000:644 JLINK_WriteReg(R8, 0x00000000)  returns 0x00 (0000ms, 0378ms total)
T2ED0 000:644 JLINK_WriteReg(R9, 0x1FFFF1A8)  returns 0x00 (0000ms, 0378ms total)
T2ED0 000:644 JLINK_WriteReg(R10, 0x00000000)  returns 0x00 (0000ms, 0378ms total)
T2ED0 000:644 JLINK_WriteReg(R11, 0x00000000)  returns 0x00 (0000ms, 0378ms total)
T2ED0 000:644 JLINK_WriteReg(R12, 0x00000000)  returns 0x00 (0000ms, 0378ms total)
T2ED0 000:644 JLINK_WriteReg(R13 (SP), 0x20000000)  returns 0x00 (0000ms, 0378ms total)
T2ED0 000:644 JLINK_WriteReg(R14, 0x1FFFF001)  returns 0x00 (0000ms, 0378ms total)
T2ED0 000:644 JLINK_WriteReg(R15 (PC), 0x1FFFF0DA)  returns 0x00 (0000ms, 0378ms total)
T2ED0 000:644 JLINK_WriteReg(XPSR, 0x01000000)  returns 0x00 (0000ms, 0378ms total)
T2ED0 000:644 JLINK_WriteReg(MSP, 0x20000000)  returns 0x00 (0000ms, 0378ms total)
T2ED0 000:644 JLINK_WriteReg(PSP, 0x20000000)  returns 0x00 (0000ms, 0378ms total)
T2ED0 000:644 JLINK_WriteReg(CFBP, 0x00000000)  returns 0x00 (0000ms, 0378ms total)
T2ED0 000:644 JLINK_SetBPEx(Addr = 0x1FFFF000, Type = 0xFFFFFFF2)  returns 0x00000003 (0000ms, 0378ms total)
T2ED0 000:644 JLINK_Go() -- CPU_WriteMem(4 bytes @ 0xE0002000) -- CPU_ReadMem(4 bytes @ 0xE0001000) -- CPU_WriteMem(4 bytes @ 0xE0001000) (0003ms, 0381ms total)
T2ED0 000:647 JLINK_IsHalted()  returns FALSE (0001ms, 0382ms total)
T2ED0 000:724 JLINK_IsHalted()  returns TRUE (0003ms, 0384ms total)
T2ED0 000:727 JLINK_ReadReg(R15 (PC))  returns 0x1FFFF000 (0000ms, 0381ms total)
T2ED0 000:727 JLINK_ClrBPEx(BPHandle = 0x00000003)  returns 0x00 (0000ms, 0381ms total)
T2ED0 000:727 JLINK_ReadReg(R0)  returns 0x00000000 (0000ms, 0381ms total)
T2ED0 000:728 JLINK_WriteReg(R0, 0x00000200)  returns 0x00 (0000ms, 0381ms total)
T2ED0 000:728 JLINK_WriteReg(R1, 0x00000200)  returns 0x00 (0000ms, 0381ms total)
T2ED0 000:728 JLINK_WriteReg(R2, 0x000000FF)  returns 0x00 (0000ms, 0381ms total)
T2ED0 000:728 JLINK_WriteReg(R3, 0x00000000)  returns 0x00 (0000ms, 0381ms total)
T2ED0 000:728 JLINK_WriteReg(R4, 0x00000000)  returns 0x00 (0000ms, 0381ms total)
T2ED0 000:728 JLINK_WriteReg(R5, 0x00000000)  returns 0x00 (0000ms, 0381ms total)
T2ED0 000:728 JLINK_WriteReg(R6, 0x00000000)  returns 0x00 (0000ms, 0381ms total)
T2ED0 000:728 JLINK_WriteReg(R7, 0x00000000)  returns 0x00 (0000ms, 0381ms total)
T2ED0 000:729 JLINK_WriteReg(R8, 0x00000000)  returns 0x00 (0000ms, 0382ms total)
T2ED0 000:729 JLINK_WriteReg(R9, 0x1FFFF1A8)  returns 0x00 (0000ms, 0382ms total)
T2ED0 000:729 JLINK_WriteReg(R10, 0x00000000)  returns 0x00 (0000ms, 0382ms total)
T2ED0 000:729 JLINK_WriteReg(R11, 0x00000000)  returns 0x00 (0000ms, 0382ms total)
T2ED0 000:729 JLINK_WriteReg(R12, 0x00000000)  returns 0x00 (0000ms, 0382ms total)
T2ED0 000:729 JLINK_WriteReg(R13 (SP), 0x20000000)  returns 0x00 (0000ms, 0382ms total)
T2ED0 000:729 JLINK_WriteReg(R14, 0x1FFFF001)  returns 0x00 (0000ms, 0382ms total)
T2ED0 000:729 JLINK_WriteReg(R15 (PC), 0x1FFFF020)  returns 0x00 (0000ms, 0382ms total)
T2ED0 000:729 JLINK_WriteReg(XPSR, 0x01000000)  returns 0x00 (0000ms, 0382ms total)
T2ED0 000:729 JLINK_WriteReg(MSP, 0x20000000)  returns 0x00 (0000ms, 0382ms total)
T2ED0 000:729 JLINK_WriteReg(PSP, 0x20000000)  returns 0x00 (0000ms, 0382ms total)
T2ED0 000:729 JLINK_WriteReg(CFBP, 0x00000000)  returns 0x00 (0000ms, 0382ms total)
T2ED0 000:729 JLINK_SetBPEx(Addr = 0x1FFFF000, Type = 0xFFFFFFF2)  returns 0x00000004 (0001ms, 0383ms total)
T2ED0 000:730 JLINK_Go() -- CPU_WriteMem(4 bytes @ 0xE0002000) -- CPU_ReadMem(4 bytes @ 0xE0001000) -- CPU_WriteMem(4 bytes @ 0xE0001000) (0002ms, 0385ms total)
T2ED0 000:733 JLINK_IsHalted()  returns TRUE (0003ms, 0389ms total)
T2ED0 000:736 JLINK_ReadReg(R15 (PC))  returns 0x1FFFF000 (0000ms, 0386ms total)
T2ED0 000:736 JLINK_ClrBPEx(BPHandle = 0x00000004)  returns 0x00 (0000ms, 0386ms total)
T2ED0 000:736 JLINK_ReadReg(R0)  returns 0x00000001 (0000ms, 0386ms total)
T2ED0 000:736 JLINK_WriteReg(R0, 0x00000200)  returns 0x00 (0000ms, 0386ms total)
T2ED0 000:736 JLINK_WriteReg(R1, 0x00000200)  returns 0x00 (0000ms, 0386ms total)
T2ED0 000:736 JLINK_WriteReg(R2, 0x000000FF)  returns 0x00 (0000ms, 0386ms total)
T2ED0 000:736 JLINK_WriteReg(R3, 0x00000000)  returns 0x00 (0000ms, 0386ms total)
T2ED0 000:736 JLINK_WriteReg(R4, 0x00000000)  returns 0x00 (0000ms, 0386ms total)
T2ED0 000:736 JLINK_WriteReg(R5, 0x00000000)  returns 0x00 (0000ms, 0386ms total)
T2ED0 000:737 JLINK_WriteReg(R6, 0x00000000)  returns 0x00 (0000ms, 0387ms total)
T2ED0 000:737 JLINK_WriteReg(R7, 0x00000000)  returns 0x00 (0000ms, 0387ms total)
T2ED0 000:737 JLINK_WriteReg(R8, 0x00000000)  returns 0x00 (0000ms, 0387ms total)
T2ED0 000:737 JLINK_WriteReg(R9, 0x1FFFF1A8)  returns 0x00 (0000ms, 0387ms total)
T2ED0 000:737 JLINK_WriteReg(R10, 0x00000000)  returns 0x00 (0000ms, 0387ms total)
T2ED0 000:737 JLINK_WriteReg(R11, 0x00000000)  returns 0x00 (0000ms, 0387ms total)
T2ED0 000:737 JLINK_WriteReg(R12, 0x00000000)  returns 0x00 (0000ms, 0387ms total)
T2ED0 000:737 JLINK_WriteReg(R13 (SP), 0x20000000)  returns 0x00 (0000ms, 0387ms total)
T2ED0 000:737 JLINK_WriteReg(R14, 0x1FFFF001)  returns 0x00 (0000ms, 0387ms total)
T2ED0 000:737 JLINK_WriteReg(R15 (PC), 0x1FFFF0DA)  returns 0x00 (0000ms, 0387ms total)
T2ED0 000:737 JLINK_WriteReg(XPSR, 0x01000000)  returns 0x00 (0000ms, 0387ms total)
T2ED0 000:737 JLINK_WriteReg(MSP, 0x20000000)  returns 0x00 (0000ms, 0387ms total)
T2ED0 000:737 JLINK_WriteReg(PSP, 0x20000000)  returns 0x00 (0000ms, 0387ms total)
T2ED0 000:737 JLINK_WriteReg(CFBP, 0x00000000)  returns 0x00 (0000ms, 0387ms total)
T2ED0 000:737 JLINK_SetBPEx(Addr = 0x1FFFF000, Type = 0xFFFFFFF2)  returns 0x00000005 (0001ms, 0388ms total)
T2ED0 000:738 JLINK_Go() -- CPU_WriteMem(4 bytes @ 0xE0002000) -- CPU_ReadMem(4 bytes @ 0xE0001000) -- CPU_WriteMem(4 bytes @ 0xE0001000) (0002ms, 0390ms total)
T2ED0 000:741 JLINK_IsHalted()  returns FALSE (0000ms, 0391ms total)
T2ED0 000:748 JLINK_IsHalted()  returns FALSE (0000ms, 0391ms total)
T2ED0 000:750 JLINK_IsHalted()  returns FALSE (0000ms, 0391ms total)
T2ED0 000:752 JLINK_IsHalted()  returns FALSE (0000ms, 0391ms total)
T2ED0 000:754 JLINK_IsHalted()  returns FALSE (0000ms, 0391ms total)
T2ED0 000:756 JLINK_IsHalted()  returns FALSE (0000ms, 0391ms total)
T2ED0 000:758 JLINK_IsHalted()  returns FALSE (0000ms, 0391ms total)
T2ED0 000:760 JLINK_IsHalted()  returns FALSE (0000ms, 0391ms total)
T2ED0 000:762 JLINK_IsHalted()  returns FALSE (0000ms, 0391ms total)
T2ED0 000:764 JLINK_IsHalted()  returns FALSE (0000ms, 0391ms total)
T2ED0 000:766 JLINK_IsHalted()  returns FALSE (0000ms, 0391ms total)
T2ED0 000:768 JLINK_IsHalted()  returns FALSE (0000ms, 0391ms total)
T2ED0 000:770 JLINK_IsHalted()  returns TRUE (0003ms, 0394ms total)
T2ED0 000:773 JLINK_ReadReg(R15 (PC))  returns 0x1FFFF000 (0000ms, 0391ms total)
T2ED0 000:773 JLINK_ClrBPEx(BPHandle = 0x00000005)  returns 0x00 (0000ms, 0391ms total)
T2ED0 000:773 JLINK_ReadReg(R0)  returns 0x00000000 (0000ms, 0391ms total)
T2ED0 000:774 JLINK_WriteReg(R0, 0x00000400)  returns 0x00 (0000ms, 0391ms total)
T2ED0 000:774 JLINK_WriteReg(R1, 0x00000200)  returns 0x00 (0000ms, 0391ms total)
T2ED0 000:774 JLINK_WriteReg(R2, 0x000000FF)  returns 0x00 (0000ms, 0391ms total)
T2ED0 000:774 JLINK_WriteReg(R3, 0x00000000)  returns 0x00 (0000ms, 0391ms total)
T2ED0 000:774 JLINK_WriteReg(R4, 0x00000000)  returns 0x00 (0000ms, 0391ms total)
T2ED0 000:774 JLINK_WriteReg(R5, 0x00000000)  returns 0x00 (0000ms, 0391ms total)
T2ED0 000:774 JLINK_WriteReg(R6, 0x00000000)  returns 0x00 (0000ms, 0391ms total)
T2ED0 000:774 JLINK_WriteReg(R7, 0x00000000)  returns 0x00 (0000ms, 0391ms total)
T2ED0 000:774 JLINK_WriteReg(R8, 0x00000000)  returns 0x00 (0001ms, 0392ms total)
T2ED0 000:775 JLINK_WriteReg(R9, 0x1FFFF1A8)  returns 0x00 (0000ms, 0392ms total)
T2ED0 000:775 JLINK_WriteReg(R10, 0x00000000)  returns 0x00 (0000ms, 0392ms total)
T2ED0 000:775 JLINK_WriteReg(R11, 0x00000000)  returns 0x00 (0000ms, 0392ms total)
T2ED0 000:775 JLINK_WriteReg(R12, 0x00000000)  returns 0x00 (0000ms, 0392ms total)
T2ED0 000:775 JLINK_WriteReg(R13 (SP), 0x20000000)  returns 0x00 (0000ms, 0392ms total)
T2ED0 000:775 JLINK_WriteReg(R14, 0x1FFFF001)  returns 0x00 (0000ms, 0392ms total)
T2ED0 000:775 JLINK_WriteReg(R15 (PC), 0x1FFFF020)  returns 0x00 (0000ms, 0392ms total)
T2ED0 000:775 JLINK_WriteReg(XPSR, 0x01000000)  returns 0x00 (0000ms, 0392ms total)
T2ED0 000:775 JLINK_WriteReg(MSP, 0x20000000)  returns 0x00 (0000ms, 0392ms total)
T2ED0 000:775 JLINK_WriteReg(PSP, 0x20000000)  returns 0x00 (0000ms, 0392ms total)
T2ED0 000:775 JLINK_WriteReg(CFBP, 0x00000000)  returns 0x00 (0000ms, 0392ms total)
T2ED0 000:775 JLINK_SetBPEx(Addr = 0x1FFFF000, Type = 0xFFFFFFF2)  returns 0x00000006 (0000ms, 0392ms total)
T2ED0 000:776 JLINK_Go() -- CPU_WriteMem(4 bytes @ 0xE0002000) -- CPU_ReadMem(4 bytes @ 0xE0001000) -- CPU_WriteMem(4 bytes @ 0xE0001000) (0003ms, 0396ms total)
T2ED0 000:779 JLINK_IsHalted()  returns TRUE (0003ms, 0399ms total)
T2ED0 000:782 JLINK_ReadReg(R15 (PC))  returns 0x1FFFF000 (0000ms, 0396ms total)
T2ED0 000:782 JLINK_ClrBPEx(BPHandle = 0x00000006)  returns 0x00 (0000ms, 0396ms total)
T2ED0 000:782 JLINK_ReadReg(R0)  returns 0x00000001 (0000ms, 0396ms total)
T2ED0 000:782 JLINK_WriteReg(R0, 0x00000400)  returns 0x00 (0000ms, 0396ms total)
T2ED0 000:782 JLINK_WriteReg(R1, 0x00000200)  returns 0x00 (0000ms, 0396ms total)
T2ED0 000:782 JLINK_WriteReg(R2, 0x000000FF)  returns 0x00 (0000ms, 0396ms total)
T2ED0 000:782 JLINK_WriteReg(R3, 0x00000000)  returns 0x00 (0000ms, 0396ms total)
T2ED0 000:782 JLINK_WriteReg(R4, 0x00000000)  returns 0x00 (0000ms, 0396ms total)
T2ED0 000:782 JLINK_WriteReg(R5, 0x00000000)  returns 0x00 (0001ms, 0397ms total)
T2ED0 000:783 JLINK_WriteReg(R6, 0x00000000)  returns 0x00 (0000ms, 0397ms total)
T2ED0 000:783 JLINK_WriteReg(R7, 0x00000000)  returns 0x00 (0000ms, 0397ms total)
T2ED0 000:783 JLINK_WriteReg(R8, 0x00000000)  returns 0x00 (0000ms, 0397ms total)
T2ED0 000:783 JLINK_WriteReg(R9, 0x1FFFF1A8)  returns 0x00 (0000ms, 0397ms total)
T2ED0 000:783 JLINK_WriteReg(R10, 0x00000000)  returns 0x00 (0000ms, 0397ms total)
T2ED0 000:783 JLINK_WriteReg(R11, 0x00000000)  returns 0x00 (0000ms, 0397ms total)
T2ED0 000:783 JLINK_WriteReg(R12, 0x00000000)  returns 0x00 (0000ms, 0397ms total)
T2ED0 000:783 JLINK_WriteReg(R13 (SP), 0x20000000)  returns 0x00 (0000ms, 0397ms total)
T2ED0 000:783 JLINK_WriteReg(R14, 0x1FFFF001)  returns 0x00 (0000ms, 0397ms total)
T2ED0 000:783 JLINK_WriteReg(R15 (PC), 0x1FFFF0DA)  returns 0x00 (0000ms, 0397ms total)
T2ED0 000:783 JLINK_WriteReg(XPSR, 0x01000000)  returns 0x00 (0000ms, 0397ms total)
T2ED0 000:783 JLINK_WriteReg(MSP, 0x20000000)  returns 0x00 (0000ms, 0397ms total)
T2ED0 000:783 JLINK_WriteReg(PSP, 0x20000000)  returns 0x00 (0001ms, 0398ms total)
T2ED0 000:784 JLINK_WriteReg(CFBP, 0x00000000)  returns 0x00 (0000ms, 0398ms total)
T2ED0 000:784 JLINK_SetBPEx(Addr = 0x1FFFF000, Type = 0xFFFFFFF2)  returns 0x00000007 (0000ms, 0398ms total)
T2ED0 000:784 JLINK_Go() -- CPU_WriteMem(4 bytes @ 0xE0002000) -- CPU_ReadMem(4 bytes @ 0xE0001000) -- CPU_WriteMem(4 bytes @ 0xE0001000) (0002ms, 0400ms total)
T2ED0 000:787 JLINK_IsHalted()  returns FALSE (0000ms, 0400ms total)
T2ED0 000:795 JLINK_IsHalted()  returns FALSE (0000ms, 0400ms total)
T2ED0 000:797 JLINK_IsHalted()  returns FALSE (0000ms, 0400ms total)
T2ED0 000:799 JLINK_IsHalted()  returns FALSE (0000ms, 0400ms total)
T2ED0 000:801 JLINK_IsHalted()  returns FALSE (0001ms, 0401ms total)
T2ED0 000:803 JLINK_IsHalted()  returns FALSE (0001ms, 0401ms total)
T2ED0 000:805 JLINK_IsHalted()  returns FALSE (0001ms, 0401ms total)
T2ED0 000:807 JLINK_IsHalted()  returns FALSE (0001ms, 0401ms total)
T2ED0 000:809 JLINK_IsHalted()  returns FALSE (0001ms, 0401ms total)
T2ED0 000:811 JLINK_IsHalted()  returns FALSE (0000ms, 0400ms total)
T2ED0 000:813 JLINK_IsHalted()  returns FALSE (0000ms, 0400ms total)
T2ED0 000:815 JLINK_IsHalted()  returns TRUE (0003ms, 0403ms total)
T2ED0 000:818 JLINK_ReadReg(R15 (PC))  returns 0x1FFFF000 (0000ms, 0400ms total)
T2ED0 000:818 JLINK_ClrBPEx(BPHandle = 0x00000007)  returns 0x00 (0000ms, 0400ms total)
T2ED0 000:818 JLINK_ReadReg(R0)  returns 0x00000000 (0000ms, 0400ms total)
T2ED0 000:819 JLINK_WriteReg(R0, 0x00000600)  returns 0x00 (0000ms, 0400ms total)
T2ED0 000:819 JLINK_WriteReg(R1, 0x00000200)  returns 0x00 (0000ms, 0400ms total)
T2ED0 000:819 JLINK_WriteReg(R2, 0x000000FF)  returns 0x00 (0000ms, 0400ms total)
T2ED0 000:819 JLINK_WriteReg(R3, 0x00000000)  returns 0x00 (0000ms, 0400ms total)
T2ED0 000:819 JLINK_WriteReg(R4, 0x00000000)  returns 0x00 (0000ms, 0400ms total)
T2ED0 000:819 JLINK_WriteReg(R5, 0x00000000)  returns 0x00 (0000ms, 0400ms total)
T2ED0 000:819 JLINK_WriteReg(R6, 0x00000000)  returns 0x00 (0000ms, 0400ms total)
T2ED0 000:819 JLINK_WriteReg(R7, 0x00000000)  returns 0x00 (0001ms, 0401ms total)
T2ED0 000:820 JLINK_WriteReg(R8, 0x00000000)  returns 0x00 (0000ms, 0401ms total)
T2ED0 000:820 JLINK_WriteReg(R9, 0x1FFFF1A8)  returns 0x00 (0000ms, 0401ms total)
T2ED0 000:820 JLINK_WriteReg(R10, 0x00000000)  returns 0x00 (0000ms, 0401ms total)
T2ED0 000:820 JLINK_WriteReg(R11, 0x00000000)  returns 0x00 (0000ms, 0401ms total)
T2ED0 000:820 JLINK_WriteReg(R12, 0x00000000)  returns 0x00 (0000ms, 0401ms total)
T2ED0 000:820 JLINK_WriteReg(R13 (SP), 0x20000000)  returns 0x00 (0000ms, 0401ms total)
T2ED0 000:820 JLINK_WriteReg(R14, 0x1FFFF001)  returns 0x00 (0000ms, 0401ms total)
T2ED0 000:820 JLINK_WriteReg(R15 (PC), 0x1FFFF020)  returns 0x00 (0000ms, 0401ms total)
T2ED0 000:820 JLINK_WriteReg(XPSR, 0x01000000)  returns 0x00 (0000ms, 0401ms total)
T2ED0 000:820 JLINK_WriteReg(MSP, 0x20000000)  returns 0x00 (0000ms, 0401ms total)
T2ED0 000:820 JLINK_WriteReg(PSP, 0x20000000)  returns 0x00 (0000ms, 0401ms total)
T2ED0 000:820 JLINK_WriteReg(CFBP, 0x00000000)  returns 0x00 (0001ms, 0402ms total)
T2ED0 000:821 JLINK_SetBPEx(Addr = 0x1FFFF000, Type = 0xFFFFFFF2)  returns 0x00000008 (0000ms, 0402ms total)
T2ED0 000:821 JLINK_Go() -- CPU_WriteMem(4 bytes @ 0xE0002000) -- CPU_ReadMem(4 bytes @ 0xE0001000) -- CPU_WriteMem(4 bytes @ 0xE0001000) (0003ms, 0405ms total)
T2ED0 000:824 JLINK_IsHalted()  returns TRUE (0003ms, 0408ms total)
T2ED0 000:827 JLINK_ReadReg(R15 (PC))  returns 0x1FFFF000 (0000ms, 0405ms total)
T2ED0 000:827 JLINK_ClrBPEx(BPHandle = 0x00000008)  returns 0x00 (0000ms, 0405ms total)
T2ED0 000:827 JLINK_ReadReg(R0)  returns 0x00000001 (0000ms, 0405ms total)
T2ED0 000:827 JLINK_WriteReg(R0, 0x00000600)  returns 0x00 (0000ms, 0405ms total)
T2ED0 000:827 JLINK_WriteReg(R1, 0x00000200)  returns 0x00 (0000ms, 0405ms total)
T2ED0 000:827 JLINK_WriteReg(R2, 0x000000FF)  returns 0x00 (0000ms, 0405ms total)
T2ED0 000:827 JLINK_WriteReg(R3, 0x00000000)  returns 0x00 (0000ms, 0405ms total)
T2ED0 000:827 JLINK_WriteReg(R4, 0x00000000)  returns 0x00 (0000ms, 0405ms total)
T2ED0 000:827 JLINK_WriteReg(R5, 0x00000000)  returns 0x00 (0001ms, 0406ms total)
T2ED0 000:828 JLINK_WriteReg(R6, 0x00000000)  returns 0x00 (0000ms, 0406ms total)
T2ED0 000:828 JLINK_WriteReg(R7, 0x00000000)  returns 0x00 (0000ms, 0406ms total)
T2ED0 000:828 JLINK_WriteReg(R8, 0x00000000)  returns 0x00 (0000ms, 0406ms total)
T2ED0 000:828 JLINK_WriteReg(R9, 0x1FFFF1A8)  returns 0x00 (0000ms, 0406ms total)
T2ED0 000:828 JLINK_WriteReg(R10, 0x00000000)  returns 0x00 (0000ms, 0406ms total)
T2ED0 000:828 JLINK_WriteReg(R11, 0x00000000)  returns 0x00 (0000ms, 0406ms total)
T2ED0 000:828 JLINK_WriteReg(R12, 0x00000000)  returns 0x00 (0000ms, 0406ms total)
T2ED0 000:828 JLINK_WriteReg(R13 (SP), 0x20000000)  returns 0x00 (0000ms, 0406ms total)
T2ED0 000:828 JLINK_WriteReg(R14, 0x1FFFF001)  returns 0x00 (0000ms, 0406ms total)
T2ED0 000:828 JLINK_WriteReg(R15 (PC), 0x1FFFF0DA)  returns 0x00 (0000ms, 0406ms total)
T2ED0 000:828 JLINK_WriteReg(XPSR, 0x01000000)  returns 0x00 (0000ms, 0406ms total)
T2ED0 000:828 JLINK_WriteReg(MSP, 0x20000000)  returns 0x00 (0001ms, 0407ms total)
T2ED0 000:829 JLINK_WriteReg(PSP, 0x20000000)  returns 0x00 (0000ms, 0407ms total)
T2ED0 000:829 JLINK_WriteReg(CFBP, 0x00000000)  returns 0x00 (0000ms, 0407ms total)
T2ED0 000:829 JLINK_SetBPEx(Addr = 0x1FFFF000, Type = 0xFFFFFFF2)  returns 0x00000009 (0000ms, 0407ms total)
T2ED0 000:829 JLINK_Go() -- CPU_WriteMem(4 bytes @ 0xE0002000) -- CPU_ReadMem(4 bytes @ 0xE0001000) -- CPU_WriteMem(4 bytes @ 0xE0001000) (0003ms, 0410ms total)
T2ED0 000:832 JLINK_IsHalted()  returns FALSE (0000ms, 0410ms total)
T2ED0 000:838 JLINK_IsHalted()  returns FALSE (0000ms, 0410ms total)
T2ED0 000:840 JLINK_IsHalted()  returns FALSE (0000ms, 0410ms total)
T2ED0 000:842 JLINK_IsHalted()  returns FALSE (0000ms, 0410ms total)
T2ED0 000:844 JLINK_IsHalted()  returns FALSE (0000ms, 0410ms total)
T2ED0 000:846 JLINK_IsHalted()  returns FALSE (0000ms, 0410ms total)
T2ED0 000:848 JLINK_IsHalted()  returns FALSE (0000ms, 0410ms total)
T2ED0 000:850 JLINK_IsHalted()  returns FALSE (0000ms, 0410ms total)
T2ED0 000:852 JLINK_IsHalted()  returns FALSE (0000ms, 0410ms total)
T2ED0 000:854 JLINK_IsHalted()  returns FALSE (0000ms, 0410ms total)
T2ED0 000:856 JLINK_IsHalted()  returns FALSE (0000ms, 0410ms total)
T2ED0 000:858 JLINK_IsHalted()  returns FALSE (0000ms, 0410ms total)
T2ED0 000:860 JLINK_IsHalted()  returns FALSE (0000ms, 0410ms total)
T2ED0 000:862 JLINK_IsHalted()  returns TRUE (0003ms, 0413ms total)
T2ED0 000:865 JLINK_ReadReg(R15 (PC))  returns 0x1FFFF000 (0000ms, 0410ms total)
T2ED0 000:865 JLINK_ClrBPEx(BPHandle = 0x00000009)  returns 0x00 (0000ms, 0410ms total)
T2ED0 000:865 JLINK_ReadReg(R0)  returns 0x00000000 (0000ms, 0410ms total)
T2ED0 000:866 JLINK_WriteReg(R0, 0x00000800)  returns 0x00 (0000ms, 0410ms total)
T2ED0 000:866 JLINK_WriteReg(R1, 0x00000200)  returns 0x00 (0000ms, 0410ms total)
T2ED0 000:866 JLINK_WriteReg(R2, 0x000000FF)  returns 0x00 (0000ms, 0410ms total)
T2ED0 000:866 JLINK_WriteReg(R3, 0x00000000)  returns 0x00 (0000ms, 0410ms total)
T2ED0 000:866 JLINK_WriteReg(R4, 0x00000000)  returns 0x00 (0000ms, 0410ms total)
T2ED0 000:866 JLINK_WriteReg(R5, 0x00000000)  returns 0x00 (0000ms, 0410ms total)
T2ED0 000:866 JLINK_WriteReg(R6, 0x00000000)  returns 0x00 (0000ms, 0410ms total)
T2ED0 000:866 JLINK_WriteReg(R7, 0x00000000)  returns 0x00 (0001ms, 0411ms total)
T2ED0 000:867 JLINK_WriteReg(R8, 0x00000000)  returns 0x00 (0000ms, 0411ms total)
T2ED0 000:867 JLINK_WriteReg(R9, 0x1FFFF1A8)  returns 0x00 (0000ms, 0411ms total)
T2ED0 000:867 JLINK_WriteReg(R10, 0x00000000)  returns 0x00 (0000ms, 0411ms total)
T2ED0 000:867 JLINK_WriteReg(R11, 0x00000000)  returns 0x00 (0000ms, 0411ms total)
T2ED0 000:867 JLINK_WriteReg(R12, 0x00000000)  returns 0x00 (0000ms, 0411ms total)
T2ED0 000:867 JLINK_WriteReg(R13 (SP), 0x20000000)  returns 0x00 (0000ms, 0411ms total)
T2ED0 000:867 JLINK_WriteReg(R14, 0x1FFFF001)  returns 0x00 (0000ms, 0411ms total)
T2ED0 000:867 JLINK_WriteReg(R15 (PC), 0x1FFFF020)  returns 0x00 (0000ms, 0411ms total)
T2ED0 000:867 JLINK_WriteReg(XPSR, 0x01000000)  returns 0x00 (0000ms, 0411ms total)
T2ED0 000:867 JLINK_WriteReg(MSP, 0x20000000)  returns 0x00 (0000ms, 0411ms total)
T2ED0 000:867 JLINK_WriteReg(PSP, 0x20000000)  returns 0x00 (0000ms, 0411ms total)
T2ED0 000:867 JLINK_WriteReg(CFBP, 0x00000000)  returns 0x00 (0000ms, 0411ms total)
T2ED0 000:867 JLINK_SetBPEx(Addr = 0x1FFFF000, Type = 0xFFFFFFF2)  returns 0x0000000A (0001ms, 0412ms total)
T2ED0 000:868 JLINK_Go() -- CPU_WriteMem(4 bytes @ 0xE0002000) -- CPU_ReadMem(4 bytes @ 0xE0001000) -- CPU_WriteMem(4 bytes @ 0xE0001000) (0003ms, 0415ms total)
T2ED0 000:871 JLINK_IsHalted()  returns TRUE (0003ms, 0418ms total)
T2ED0 000:874 JLINK_ReadReg(R15 (PC))  returns 0x1FFFF000 (0000ms, 0415ms total)
T2ED0 000:874 JLINK_ClrBPEx(BPHandle = 0x0000000A)  returns 0x00 (0000ms, 0415ms total)
T2ED0 000:874 JLINK_ReadReg(R0)  returns 0x00000001 (0000ms, 0415ms total)
T2ED0 000:874 JLINK_WriteReg(R0, 0x00000800)  returns 0x00 (0000ms, 0415ms total)
T2ED0 000:874 JLINK_WriteReg(R1, 0x00000200)  returns 0x00 (0000ms, 0415ms total)
T2ED0 000:874 JLINK_WriteReg(R2, 0x000000FF)  returns 0x00 (0000ms, 0415ms total)
T2ED0 000:874 JLINK_WriteReg(R3, 0x00000000)  returns 0x00 (0001ms, 0416ms total)
T2ED0 000:875 JLINK_WriteReg(R4, 0x00000000)  returns 0x00 (0000ms, 0416ms total)
T2ED0 000:875 JLINK_WriteReg(R5, 0x00000000)  returns 0x00 (0000ms, 0416ms total)
T2ED0 000:875 JLINK_WriteReg(R6, 0x00000000)  returns 0x00 (0000ms, 0416ms total)
T2ED0 000:875 JLINK_WriteReg(R7, 0x00000000)  returns 0x00 (0000ms, 0416ms total)
T2ED0 000:875 JLINK_WriteReg(R8, 0x00000000)  returns 0x00 (0000ms, 0416ms total)
T2ED0 000:875 JLINK_WriteReg(R9, 0x1FFFF1A8)  returns 0x00 (0000ms, 0416ms total)
T2ED0 000:875 JLINK_WriteReg(R10, 0x00000000)  returns 0x00 (0000ms, 0416ms total)
T2ED0 000:875 JLINK_WriteReg(R11, 0x00000000)  returns 0x00 (0000ms, 0416ms total)
T2ED0 000:875 JLINK_WriteReg(R12, 0x00000000)  returns 0x00 (0000ms, 0416ms total)
T2ED0 000:875 JLINK_WriteReg(R13 (SP), 0x20000000)  returns 0x00 (0000ms, 0416ms total)
T2ED0 000:875 JLINK_WriteReg(R14, 0x1FFFF001)  returns 0x00 (0000ms, 0416ms total)
T2ED0 000:875 JLINK_WriteReg(R15 (PC), 0x1FFFF0DA)  returns 0x00 (0000ms, 0416ms total)
T2ED0 000:875 JLINK_WriteReg(XPSR, 0x01000000)  returns 0x00 (0001ms, 0417ms total)
T2ED0 000:876 JLINK_WriteReg(MSP, 0x20000000)  returns 0x00 (0000ms, 0417ms total)
T2ED0 000:876 JLINK_WriteReg(PSP, 0x20000000)  returns 0x00 (0000ms, 0417ms total)
T2ED0 000:876 JLINK_WriteReg(CFBP, 0x00000000)  returns 0x00 (0000ms, 0417ms total)
T2ED0 000:876 JLINK_SetBPEx(Addr = 0x1FFFF000, Type = 0xFFFFFFF2)  returns 0x0000000B (0000ms, 0417ms total)
T2ED0 000:876 JLINK_Go() -- CPU_WriteMem(4 bytes @ 0xE0002000) -- CPU_ReadMem(4 bytes @ 0xE0001000) -- CPU_WriteMem(4 bytes @ 0xE0001000) (0003ms, 0420ms total)
T2ED0 000:879 JLINK_IsHalted()  returns FALSE (0000ms, 0420ms total)
T2ED0 000:881 JLINK_IsHalted()  returns FALSE (0000ms, 0420ms total)
T2ED0 000:883 JLINK_IsHalted()  returns FALSE (0000ms, 0420ms total)
T2ED0 000:885 JLINK_IsHalted()  returns FALSE (0000ms, 0420ms total)
T2ED0 000:887 JLINK_IsHalted()  returns FALSE (0000ms, 0420ms total)
T2ED0 000:889 JLINK_IsHalted()  returns FALSE (0000ms, 0420ms total)
T2ED0 000:891 JLINK_IsHalted()  returns FALSE (0000ms, 0420ms total)
T2ED0 000:893 JLINK_IsHalted()  returns FALSE (0000ms, 0420ms total)
T2ED0 000:895 JLINK_IsHalted()  returns FALSE (0000ms, 0420ms total)
T2ED0 000:900 JLINK_IsHalted()  returns FALSE (0001ms, 0421ms total)
T2ED0 000:902 JLINK_IsHalted()  returns FALSE (0001ms, 0421ms total)
T2ED0 000:904 JLINK_IsHalted()  returns FALSE (0001ms, 0421ms total)
T2ED0 000:906 JLINK_IsHalted()  returns FALSE (0001ms, 0421ms total)
T2ED0 000:908 JLINK_IsHalted()  returns TRUE (0003ms, 0423ms total)
T2ED0 000:911 JLINK_ReadReg(R15 (PC))  returns 0x1FFFF000 (0000ms, 0420ms total)
T2ED0 000:911 JLINK_ClrBPEx(BPHandle = 0x0000000B)  returns 0x00 (0000ms, 0420ms total)
T2ED0 000:911 JLINK_ReadReg(R0)  returns 0x00000000 (0000ms, 0420ms total)
T2ED0 000:912 JLINK_WriteReg(R0, 0x00000A00)  returns 0x00 (0000ms, 0420ms total)
T2ED0 000:912 JLINK_WriteReg(R1, 0x00000200)  returns 0x00 (0000ms, 0420ms total)
T2ED0 000:912 JLINK_WriteReg(R2, 0x000000FF)  returns 0x00 (0001ms, 0421ms total)
T2ED0 000:913 JLINK_WriteReg(R3, 0x00000000)  returns 0x00 (0000ms, 0421ms total)
T2ED0 000:913 JLINK_WriteReg(R4, 0x00000000)  returns 0x00 (0000ms, 0421ms total)
T2ED0 000:913 JLINK_WriteReg(R5, 0x00000000)  returns 0x00 (0000ms, 0421ms total)
T2ED0 000:913 JLINK_WriteReg(R6, 0x00000000)  returns 0x00 (0000ms, 0421ms total)
T2ED0 000:913 JLINK_WriteReg(R7, 0x00000000)  returns 0x00 (0000ms, 0421ms total)
T2ED0 000:913 JLINK_WriteReg(R8, 0x00000000)  returns 0x00 (0000ms, 0421ms total)
T2ED0 000:913 JLINK_WriteReg(R9, 0x1FFFF1A8)  returns 0x00 (0000ms, 0421ms total)
T2ED0 000:913 JLINK_WriteReg(R10, 0x00000000)  returns 0x00 (0000ms, 0421ms total)
T2ED0 000:913 JLINK_WriteReg(R11, 0x00000000)  returns 0x00 (0000ms, 0421ms total)
T2ED0 000:913 JLINK_WriteReg(R12, 0x00000000)  returns 0x00 (0000ms, 0421ms total)
T2ED0 000:913 JLINK_WriteReg(R13 (SP), 0x20000000)  returns 0x00 (0000ms, 0421ms total)
T2ED0 000:913 JLINK_WriteReg(R14, 0x1FFFF001)  returns 0x00 (0000ms, 0421ms total)
T2ED0 000:913 JLINK_WriteReg(R15 (PC), 0x1FFFF020)  returns 0x00 (0000ms, 0421ms total)
T2ED0 000:914 JLINK_WriteReg(XPSR, 0x01000000)  returns 0x00 (0000ms, 0422ms total)
T2ED0 000:914 JLINK_WriteReg(MSP, 0x20000000)  returns 0x00 (0000ms, 0422ms total)
T2ED0 000:914 JLINK_WriteReg(PSP, 0x20000000)  returns 0x00 (0000ms, 0422ms total)
T2ED0 000:914 JLINK_WriteReg(CFBP, 0x00000000)  returns 0x00 (0000ms, 0422ms total)
T2ED0 000:914 JLINK_SetBPEx(Addr = 0x1FFFF000, Type = 0xFFFFFFF2)  returns 0x0000000C (0000ms, 0422ms total)
T2ED0 000:914 JLINK_Go() -- CPU_WriteMem(4 bytes @ 0xE0002000) -- CPU_ReadMem(4 bytes @ 0xE0001000) -- CPU_WriteMem(4 bytes @ 0xE0001000) (0002ms, 0424ms total)
T2ED0 000:916 JLINK_IsHalted()  returns TRUE (0003ms, 0427ms total)
T2ED0 000:920 JLINK_ReadReg(R15 (PC))  returns 0x1FFFF000 (0000ms, 0424ms total)
T2ED0 000:920 JLINK_ClrBPEx(BPHandle = 0x0000000C)  returns 0x00 (0000ms, 0424ms total)
T2ED0 000:920 JLINK_ReadReg(R0)  returns 0x00000001 (0000ms, 0424ms total)
T2ED0 000:920 JLINK_WriteReg(R0, 0x00000A00)  returns 0x00 (0000ms, 0424ms total)
T2ED0 000:920 JLINK_WriteReg(R1, 0x00000200)  returns 0x00 (0000ms, 0424ms total)
T2ED0 000:920 JLINK_WriteReg(R2, 0x000000FF)  returns 0x00 (0000ms, 0424ms total)
T2ED0 000:920 JLINK_WriteReg(R3, 0x00000000)  returns 0x00 (0000ms, 0424ms total)
T2ED0 000:920 JLINK_WriteReg(R4, 0x00000000)  returns 0x00 (0000ms, 0424ms total)
T2ED0 000:920 JLINK_WriteReg(R5, 0x00000000)  returns 0x00 (0000ms, 0424ms total)
T2ED0 000:920 JLINK_WriteReg(R6, 0x00000000)  returns 0x00 (0000ms, 0424ms total)
T2ED0 000:920 JLINK_WriteReg(R7, 0x00000000)  returns 0x00 (0000ms, 0424ms total)
T2ED0 000:920 JLINK_WriteReg(R8, 0x00000000)  returns 0x00 (0001ms, 0425ms total)
T2ED0 000:921 JLINK_WriteReg(R9, 0x1FFFF1A8)  returns 0x00 (0000ms, 0425ms total)
T2ED0 000:921 JLINK_WriteReg(R10, 0x00000000)  returns 0x00 (0000ms, 0425ms total)
T2ED0 000:921 JLINK_WriteReg(R11, 0x00000000)  returns 0x00 (0000ms, 0425ms total)
T2ED0 000:921 JLINK_WriteReg(R12, 0x00000000)  returns 0x00 (0000ms, 0425ms total)
T2ED0 000:921 JLINK_WriteReg(R13 (SP), 0x20000000)  returns 0x00 (0000ms, 0425ms total)
T2ED0 000:921 JLINK_WriteReg(R14, 0x1FFFF001)  returns 0x00 (0000ms, 0425ms total)
T2ED0 000:921 JLINK_WriteReg(R15 (PC), 0x1FFFF0DA)  returns 0x00 (0000ms, 0425ms total)
T2ED0 000:921 JLINK_WriteReg(XPSR, 0x01000000)  returns 0x00 (0000ms, 0425ms total)
T2ED0 000:921 JLINK_WriteReg(MSP, 0x20000000)  returns 0x00 (0000ms, 0425ms total)
T2ED0 000:921 JLINK_WriteReg(PSP, 0x20000000)  returns 0x00 (0000ms, 0425ms total)
T2ED0 000:921 JLINK_WriteReg(CFBP, 0x00000000)  returns 0x00 (0000ms, 0425ms total)
T2ED0 000:921 JLINK_SetBPEx(Addr = 0x1FFFF000, Type = 0xFFFFFFF2)  returns 0x0000000D (0000ms, 0425ms total)
T2ED0 000:921 JLINK_Go() -- CPU_WriteMem(4 bytes @ 0xE0002000) -- CPU_ReadMem(4 bytes @ 0xE0001000) -- CPU_WriteMem(4 bytes @ 0xE0001000) (0004ms, 0429ms total)
T2ED0 000:925 JLINK_IsHalted()  returns FALSE (0000ms, 0429ms total)
T2ED0 000:930 JLINK_IsHalted()  returns FALSE (0000ms, 0429ms total)
T2ED0 000:932 JLINK_IsHalted()  returns FALSE (0000ms, 0429ms total)
T2ED0 000:934 JLINK_IsHalted()  returns FALSE (0000ms, 0429ms total)
T2ED0 000:936 JLINK_IsHalted()  returns FALSE (0000ms, 0429ms total)
T2ED0 000:938 JLINK_IsHalted()  returns FALSE (0000ms, 0429ms total)
T2ED0 000:940 JLINK_IsHalted()  returns FALSE (0000ms, 0429ms total)
T2ED0 000:942 JLINK_IsHalted()  returns FALSE (0000ms, 0429ms total)
T2ED0 000:944 JLINK_IsHalted()  returns FALSE (0000ms, 0429ms total)
T2ED0 000:946 JLINK_IsHalted()  returns FALSE (0000ms, 0429ms total)
T2ED0 000:948 JLINK_IsHalted()  returns FALSE (0000ms, 0429ms total)
T2ED0 000:950 JLINK_IsHalted()  returns FALSE (0000ms, 0429ms total)
T2ED0 000:952 JLINK_IsHalted()  returns FALSE (0000ms, 0429ms total)
T2ED0 000:954 JLINK_IsHalted()  returns TRUE (0003ms, 0432ms total)
T2ED0 000:957 JLINK_ReadReg(R15 (PC))  returns 0x1FFFF000 (0000ms, 0429ms total)
T2ED0 000:957 JLINK_ClrBPEx(BPHandle = 0x0000000D)  returns 0x00 (0000ms, 0429ms total)
T2ED0 000:957 JLINK_ReadReg(R0)  returns 0x00000000 (0000ms, 0429ms total)
T2ED0 000:958 JLINK_WriteReg(R0, 0x00000C00)  returns 0x00 (0000ms, 0429ms total)
T2ED0 000:958 JLINK_WriteReg(R1, 0x00000200)  returns 0x00 (0000ms, 0429ms total)
T2ED0 000:958 JLINK_WriteReg(R2, 0x000000FF)  returns 0x00 (0000ms, 0429ms total)
T2ED0 000:958 JLINK_WriteReg(R3, 0x00000000)  returns 0x00 (0001ms, 0430ms total)
T2ED0 000:959 JLINK_WriteReg(R4, 0x00000000)  returns 0x00 (0000ms, 0430ms total)
T2ED0 000:959 JLINK_WriteReg(R5, 0x00000000)  returns 0x00 (0000ms, 0430ms total)
T2ED0 000:959 JLINK_WriteReg(R6, 0x00000000)  returns 0x00 (0000ms, 0430ms total)
T2ED0 000:959 JLINK_WriteReg(R7, 0x00000000)  returns 0x00 (0000ms, 0430ms total)
T2ED0 000:959 JLINK_WriteReg(R8, 0x00000000)  returns 0x00 (0000ms, 0430ms total)
T2ED0 000:959 JLINK_WriteReg(R9, 0x1FFFF1A8)  returns 0x00 (0000ms, 0430ms total)
T2ED0 000:959 JLINK_WriteReg(R10, 0x00000000)  returns 0x00 (0000ms, 0430ms total)
T2ED0 000:959 JLINK_WriteReg(R11, 0x00000000)  returns 0x00 (0000ms, 0430ms total)
T2ED0 000:959 JLINK_WriteReg(R12, 0x00000000)  returns 0x00 (0000ms, 0430ms total)
T2ED0 000:959 JLINK_WriteReg(R13 (SP), 0x20000000)  returns 0x00 (0000ms, 0430ms total)
T2ED0 000:959 JLINK_WriteReg(R14, 0x1FFFF001)  returns 0x00 (0000ms, 0430ms total)
T2ED0 000:959 JLINK_WriteReg(R15 (PC), 0x1FFFF020)  returns 0x00 (0000ms, 0430ms total)
T2ED0 000:959 JLINK_WriteReg(XPSR, 0x01000000)  returns 0x00 (0001ms, 0431ms total)
T2ED0 000:960 JLINK_WriteReg(MSP, 0x20000000)  returns 0x00 (0000ms, 0431ms total)
T2ED0 000:960 JLINK_WriteReg(PSP, 0x20000000)  returns 0x00 (0000ms, 0431ms total)
T2ED0 000:960 JLINK_WriteReg(CFBP, 0x00000000)  returns 0x00 (0000ms, 0431ms total)
T2ED0 000:960 JLINK_SetBPEx(Addr = 0x1FFFF000, Type = 0xFFFFFFF2)  returns 0x0000000E (0000ms, 0431ms total)
T2ED0 000:960 JLINK_Go() -- CPU_WriteMem(4 bytes @ 0xE0002000) -- CPU_ReadMem(4 bytes @ 0xE0001000) -- CPU_WriteMem(4 bytes @ 0xE0001000) (0003ms, 0434ms total)
T2ED0 000:963 JLINK_IsHalted()  returns TRUE (0003ms, 0437ms total)
T2ED0 000:966 JLINK_ReadReg(R15 (PC))  returns 0x1FFFF000 (0000ms, 0434ms total)
T2ED0 000:966 JLINK_ClrBPEx(BPHandle = 0x0000000E)  returns 0x00 (0000ms, 0434ms total)
T2ED0 000:966 JLINK_ReadReg(R0)  returns 0x00000001 (0000ms, 0434ms total)
T2ED0 000:966 JLINK_WriteReg(R0, 0x00000C00)  returns 0x00 (0001ms, 0435ms total)
T2ED0 000:967 JLINK_WriteReg(R1, 0x00000200)  returns 0x00 (0000ms, 0435ms total)
T2ED0 000:967 JLINK_WriteReg(R2, 0x000000FF)  returns 0x00 (0000ms, 0435ms total)
T2ED0 000:967 JLINK_WriteReg(R3, 0x00000000)  returns 0x00 (0000ms, 0435ms total)
T2ED0 000:967 JLINK_WriteReg(R4, 0x00000000)  returns 0x00 (0000ms, 0435ms total)
T2ED0 000:967 JLINK_WriteReg(R5, 0x00000000)  returns 0x00 (0000ms, 0435ms total)
T2ED0 000:967 JLINK_WriteReg(R6, 0x00000000)  returns 0x00 (0000ms, 0435ms total)
T2ED0 000:967 JLINK_WriteReg(R7, 0x00000000)  returns 0x00 (0000ms, 0435ms total)
T2ED0 000:967 JLINK_WriteReg(R8, 0x00000000)  returns 0x00 (0000ms, 0435ms total)
T2ED0 000:967 JLINK_WriteReg(R9, 0x1FFFF1A8)  returns 0x00 (0000ms, 0435ms total)
T2ED0 000:967 JLINK_WriteReg(R10, 0x00000000)  returns 0x00 (0000ms, 0435ms total)
T2ED0 000:967 JLINK_WriteReg(R11, 0x00000000)  returns 0x00 (0000ms, 0435ms total)
T2ED0 000:967 JLINK_WriteReg(R12, 0x00000000)  returns 0x00 (0000ms, 0435ms total)
T2ED0 000:967 JLINK_WriteReg(R13 (SP), 0x20000000)  returns 0x00 (0001ms, 0436ms total)
T2ED0 000:968 JLINK_WriteReg(R14, 0x1FFFF001)  returns 0x00 (0000ms, 0436ms total)
T2ED0 000:968 JLINK_WriteReg(R15 (PC), 0x1FFFF0DA)  returns 0x00 (0000ms, 0436ms total)
T2ED0 000:968 JLINK_WriteReg(XPSR, 0x01000000)  returns 0x00 (0000ms, 0436ms total)
T2ED0 000:968 JLINK_WriteReg(MSP, 0x20000000)  returns 0x00 (0000ms, 0436ms total)
T2ED0 000:968 JLINK_WriteReg(PSP, 0x20000000)  returns 0x00 (0000ms, 0436ms total)
T2ED0 000:968 JLINK_WriteReg(CFBP, 0x00000000)  returns 0x00 (0000ms, 0436ms total)
T2ED0 000:968 JLINK_SetBPEx(Addr = 0x1FFFF000, Type = 0xFFFFFFF2)  returns 0x0000000F (0000ms, 0436ms total)
T2ED0 000:968 JLINK_Go() -- CPU_WriteMem(4 bytes @ 0xE0002000) -- CPU_ReadMem(4 bytes @ 0xE0001000) -- CPU_WriteMem(4 bytes @ 0xE0001000) (0003ms, 0439ms total)
T2ED0 000:971 JLINK_IsHalted()  returns FALSE (0001ms, 0440ms total)
T2ED0 000:974 JLINK_IsHalted()  returns FALSE (0000ms, 0439ms total)
T2ED0 000:976 JLINK_IsHalted()  returns FALSE (0000ms, 0439ms total)
T2ED0 000:978 JLINK_IsHalted()  returns FALSE (0000ms, 0439ms total)
T2ED0 000:980 JLINK_IsHalted()  returns FALSE (0000ms, 0439ms total)
T2ED0 000:982 JLINK_IsHalted()  returns FALSE (0000ms, 0439ms total)
T2ED0 000:984 JLINK_IsHalted()  returns FALSE (0000ms, 0439ms total)
T2ED0 000:987 JLINK_IsHalted()  returns FALSE (0000ms, 0439ms total)
T2ED0 000:989 JLINK_IsHalted()  returns FALSE (0000ms, 0439ms total)
T2ED0 000:991 JLINK_IsHalted()  returns FALSE (0000ms, 0439ms total)
T2ED0 000:993 JLINK_IsHalted()  returns FALSE (0000ms, 0439ms total)
T2ED0 000:995 JLINK_IsHalted()  returns FALSE (0000ms, 0439ms total)
T2ED0 000:997 JLINK_IsHalted()  returns FALSE (0000ms, 0439ms total)
T2ED0 000:999 JLINK_IsHalted()  returns FALSE (0000ms, 0439ms total)
T2ED0 001:001 JLINK_IsHalted()  returns TRUE (0003ms, 0442ms total)
T2ED0 001:004 JLINK_ReadReg(R15 (PC))  returns 0x1FFFF000 (0000ms, 0439ms total)
T2ED0 001:004 JLINK_ClrBPEx(BPHandle = 0x0000000F)  returns 0x00 (0000ms, 0439ms total)
T2ED0 001:004 JLINK_ReadReg(R0)  returns 0x00000000 (0000ms, 0439ms total)
T2ED0 001:005 JLINK_WriteReg(R0, 0x00000E00)  returns 0x00 (0000ms, 0439ms total)
T2ED0 001:005 JLINK_WriteReg(R1, 0x00000200)  returns 0x00 (0000ms, 0439ms total)
T2ED0 001:005 JLINK_WriteReg(R2, 0x000000FF)  returns 0x00 (0000ms, 0439ms total)
T2ED0 001:005 JLINK_WriteReg(R3, 0x00000000)  returns 0x00 (0000ms, 0439ms total)
T2ED0 001:005 JLINK_WriteReg(R4, 0x00000000)  returns 0x00 (0000ms, 0439ms total)
T2ED0 001:005 JLINK_WriteReg(R5, 0x00000000)  returns 0x00 (0000ms, 0439ms total)
T2ED0 001:005 JLINK_WriteReg(R6, 0x00000000)  returns 0x00 (0001ms, 0440ms total)
T2ED0 001:006 JLINK_WriteReg(R7, 0x00000000)  returns 0x00 (0000ms, 0440ms total)
T2ED0 001:006 JLINK_WriteReg(R8, 0x00000000)  returns 0x00 (0000ms, 0440ms total)
